Circuit: * \\pesto\oerd\langis\Pop-up\Gen 3 (Rev 5) (2017-2018)\Electrical\LT Spice Model - Temp Circuit - Pop-Up Rev 5.1.asc

Direct Newton iteration failed to find .op point.  (Use ".option noopiter" to skip.)
Starting Gmin stepping
Gmin = 10
Gmin = 1.07374
Gmin = 0.115292
Gmin = 0.0123794
Gmin = 0.00132923
Gmin = 0.000142725
Gmin = 1.5325e-005
Gmin = 1.6455e-006
Gmin = 1.76685e-007
Gmin = 1.89714e-008
Gmin = 2.03704e-009
Gmin = 2.18725e-010
Gmin = 2.34854e-011
Gmin = 2.52173e-012
Gmin = 2.70769e-013
Gmin = 0
Gmin stepping succeeded in finding the operating point.

Semiconductor Device Operating Points:
                        --- Diodes ---
Name:    d:u3:3      d:u3:2      d:u3:6      d:u3:5      d:u3:4
Model:  u3:dbias    u3:dbias      u3:yd       u3:yu       u3:xd
Id:     -1.20e-08   -1.20e-08    1.75e-18   -1.75e-18    7.81e-08
Vd:     -4.90e+00   -4.90e+00    8.75e-07   -8.75e-07   -1.02e-01
Req:     1.00e-03    1.00e-03    1.00e-12    1.00e-12    1.00e-03
CAP:     0.00e+00    0.00e+00    0.00e+00    0.00e+00    0.00e+00

Name:    d:u3:1      d:u2:3      d:u2:2      d:u2:6      d:u2:5
Model:    u3:xu     u2:dbias    u2:dbias      u2:yd       u2:yu
Id:     -5.39e-11   -1.20e-08   -1.20e-08    2.06e-15   -2.06e-15
Vd:     -4.90e+00   -4.90e+00   -4.90e+00    1.03e-03   -1.03e-03
Req:     1.00e-11    1.00e-03    1.00e-03    1.00e-12    1.00e-12
CAP:     0.00e+00    0.00e+00    0.00e+00    0.00e+00    0.00e+00

Name:    d:u2:4      d:u2:1      d:u1:1
Model:    u2:xd       u2:xu       u1:y
Id:      9.04e-08   -5.39e-11   -1.25e-07
Vd:     -1.01e-01   -4.90e+00   -1.25e+00
Req:     1.00e-03    1.00e-11    1.00e-07
CAP:     0.00e+00    0.00e+00    0.00e+00

                        --- VDMOSFET Transistors ---
Name:        m:u3:2      m:u3:1      m:u2:2      m:u2:1      m:u1:1
Model:        u3:p        u3:n        u2:p        u2:n        u1:n
Id:         -3.50e-04    3.50e-04   -3.57e-04    3.43e-04    1.30e-05
Vgs:        -8.75e-07   -8.75e-07   -1.03e-03   -1.03e-03    2.28e-02
Vds:        -1.02e-01    4.90e+00   -1.02e-01    4.90e+00    1.25e+00
Vth:         1.00e-01   -1.00e-01    1.00e-01   -1.00e-01    0.00e+00
Gm:          7.00e-03    7.00e-03    7.07e-03    6.93e-03    1.14e-03
Gds:         0.00e+00    0.00e+00    0.00e+00    0.00e+00    0.00e+00
Cgs:         0.00e+00    0.00e+00    0.00e+00    0.00e+00    0.00e+00
Cgd:         0.00e+00    0.00e+00    0.00e+00    0.00e+00    0.00e+00
Cbody:       0.00e+00    0.00e+00    0.00e+00    0.00e+00    0.00e+00



Date: Fri Apr 20 09:59:56 2018
Total elapsed time: 6.811 seconds.

tnom = 27
temp = 27
method = trap
totiter = 36
traniter = 0
tranpoints = 0
accept = 0
rejected = 0
matrix size = 20
fillins = 28
solver = Normal
Matrix Compiler1: 2.39 KB object code size
Matrix Compiler2:     166 opcodes

