Circuit: * \\pesto\oerd\langis\Pop-up\Gen 2 (Rev 4) (2016-2017)\Electrical\LT Spice Model - Temp Circuit - Pop-Up Rev 4.0.asc

Direct Newton iteration failed to find .op point.  (Use ".option noopiter" to skip.)
Starting Gmin stepping
Gmin = 10
Gmin = 1.07374
Gmin = 0.115292
Gmin = 0.0123794
Gmin = 0.00132923
Gmin = 0.000142725
Gmin = 1.5325e-005
Gmin = 1.6455e-006
Gmin = 1.76685e-007
Gmin = 1.89714e-008
Gmin = 2.03704e-009
Gmin = 2.18725e-010
Gmin = 2.34854e-011
Gmin = 2.52173e-012
Gmin = 2.70769e-013
Gmin = 0
Gmin stepping succeeded in finding the operating point.

Semiconductor Device Operating Points:
                        --- Diodes ---
Name:    d:u3:3      d:u3:2      d:u3:6      d:u3:5      d:u3:4
Model:  u3:dbias    u3:dbias      u3:yd       u3:yu       u3:xd
Id:     -1.20e-08   -1.20e-08    9.51e-15   -9.51e-15    1.66e-06
Vd:     -4.95e+00   -4.94e+00    4.76e-03   -4.76e-03   -5.64e-02
Req:     1.00e-03    1.00e-03    1.00e-12    1.00e-12    1.00e-03
CAP:     0.00e+00    0.00e+00    0.00e+00    0.00e+00    0.00e+00

Name:    d:u3:1      d:u2:3      d:u2:2      d:u2:6      d:u2:5
Model:    u3:xu     u2:dbias    u2:dbias      u2:yd       u2:yu
Id:     -5.44e-11   -1.20e-08   -1.20e-08    2.43e-14   -2.43e-14
Vd:     -4.94e+00   -4.95e+00   -4.94e+00    1.22e-02   -1.22e-02
Req:     1.00e-11    1.00e-03    1.00e-03    1.00e-12    1.00e-12
CAP:     0.00e+00    0.00e+00    0.00e+00    0.00e+00    0.00e+00

Name:    d:u2:4      d:u2:1      d:u1:1
Model:    u2:xd       u2:xu       u1:y
Id:      1.98e-06   -5.44e-11   -1.25e-07
Vd:     -5.11e-02   -4.95e+00   -1.25e+00
Req:     1.00e-03    1.00e-11    1.00e-07
CAP:     0.00e+00    0.00e+00    0.00e+00

                        --- VDMOSFET Transistors ---
Name:        m:u3:2      m:u3:1      m:u2:2      m:u2:1      m:u1:1
Model:        u3:p        u3:n        u2:p        u2:n        u1:n
Id:         -3.18e-04    3.17e-04   -3.56e-04    2.70e-04    8.50e-05
Vgs:        -4.76e-03   -4.76e-03   -1.22e-02   -1.22e-02    5.83e-02
Vds:        -6.11e-02    4.94e+00   -6.32e-02    4.94e+00    1.25e+00
Vth:         1.00e-01   -1.00e-01    1.00e-01   -1.00e-01    0.00e+00
Gm:          4.28e-03    6.67e-03    4.43e-03    6.15e-03    2.92e-03
Gds:         3.05e-03    0.00e+00    3.43e-03    0.00e+00    0.00e+00
Cgs:         0.00e+00    0.00e+00    0.00e+00    0.00e+00    0.00e+00
Cgd:         0.00e+00    0.00e+00    0.00e+00    0.00e+00    0.00e+00
Cbody:       0.00e+00    0.00e+00    0.00e+00    0.00e+00    0.00e+00



Date: Mon Apr 16 12:33:20 2018
Total elapsed time: 2.185 seconds.

tnom = 27
temp = 27
method = trap
totiter = 874
traniter = 0
tranpoints = 0
accept = 0
rejected = 0
matrix size = 20
fillins = 25
solver = Normal
Thread vector: 16.6/11.7[2] 0.0/0.0[0] 1.8/1.9[1] 0.3/0.7[1]  2592/500
Matrix Compiler1: 2.17 KB object code size
Matrix Compiler2:     163 opcodes  0.5/[0.5]/0.6


